
T3EFC 000:087 SEGGER J-Link V6.00e Log File (0000ms, 0037ms total)
T3EFC 000:087 DLL Compiled: Aug  4 2016 09:37:38 (0000ms, 0037ms total)
T3EFC 000:087 Logging started @ 2023-10-05 19:13 (0000ms, 0037ms total)
T3EFC 000:087 JLINK_SetWarnOutHandler(...) (0000ms, 0037ms total)
T3EFC 000:087 JLINK_OpenEx(...)
Firmware: J-Link ARM-OB STM32 compiled Aug 22 2012 19:52:04
Hardware: V7.00
S/N: 20090928
Feature(s): RDI,FlashDL,FlashBP,JFlash,GDBFull  returns O.K. (0024ms, 0061ms total)
T3EFC 000:111 JLINK_SetErrorOutHandler(...) (0000ms, 0061ms total)
T3EFC 000:111 JLINK_ExecCommand("ProjectFile = "D:\WORK\RM\Task\Infantry\Gimbal\Project\JLinkSettings.ini"", ...). Device "STM32F405RG" selected.  returns 0x00 (0082ms, 0143ms total)
T3EFC 000:193 JLINK_ExecCommand("Device = STM32F405RG", ...). Device "STM32F405RG" selected.  returns 0x00 (0001ms, 0144ms total)
T3EFC 000:194 JLINK_ExecCommand("DisableConnectionTimeout", ...).   returns 0x01 (0000ms, 0144ms total)
T3EFC 000:194 JLINK_GetHardwareVersion()  returns 0x11170 (0000ms, 0144ms total)
T3EFC 000:194 JLINK_GetDLLVersion()  returns 60005 (0000ms, 0144ms total)
T3EFC 000:194 JLINK_GetFirmwareString(...) (0000ms, 0144ms total)
T3EFC 000:194 JLINK_GetDLLVersion()  returns 60005 (0000ms, 0144ms total)
T3EFC 000:194 JLINK_GetCompileDateTime() (0000ms, 0144ms total)
T3EFC 000:194 JLINK_GetFirmwareString(...) (0000ms, 0144ms total)
T3EFC 000:194 JLINK_GetHardwareVersion()  returns 0x11170 (0000ms, 0144ms total)
T3EFC 000:194 JLINK_TIF_Select(JLINKARM_TIF_SWD)  returns 0x00 (0000ms, 0144ms total)
T3EFC 000:194 JLINK_SetSpeed(5000) (0000ms, 0144ms total)
T3EFC 000:194 JLINK_GetId() >0x108 TIF>Found SWD-DP with ID 0x2BA01477 >0x0D TIF> >0x28 TIF> >0x0D TIF> >0x28 TIF> >0x0D TIF> >0x28 TIF> >0x0D TIF> >0x28 TIF> >0x0D TIF> >0x21 TIF> >0x0D TIF> >0x28 TIF> >0x0D TIF> >0x28 TIF> >0x0D TIF> >0x28 TIF> >0x0D TIF> >0x21 TIF> >0x0D TIF> >0x21 TIF> >0x0D TIF> >0x28 TIF> >0x0D TIF> >0x21 TIF> >0x0D TIF> >0x21 TIF> >0x0D TIF> >0x28 TIF> >0x0D TIF> >0x21 TIF> >0x0D TIF> >0x21 TIF> >0x0D TIF> >0x28 TIF> >0x0D TIF> >0x21 TIF> >0x0D TIF> >0x21 TIF> >0x0D TIF>
 >0x28 TIF> >0x0D TIF> >0x21 TIF> >0x0D TIF> >0x21 TIF> >0x0D TIF> >0x28 TIF> >0x0D TIF> >0x21 TIF> >0x0D TIF> >0x21 TIF> >0x108 TIF>Found SWD-DP with ID 0x2BA01477 >0x0D TIF> >0x28 TIF> >0x0D TIF> >0x28 TIF> >0x0D TIF> >0x28 TIF> >0x0D TIF> >0x28 TIF> >0x0D TIF> >0x21 TIF> >0x0D TIF> >0x28 TIF> >0x0D TIF> >0x28 TIF> >0x0D TIF> >0x21 TIF> >0x0D TIF> >0x21 TIF> >0x0D TIF> >0x21 TIF>AP-IDR: 0x24770011, Type: AHB-AP >0x0D TIF> >0x28 TIF> >0x0D TIF> >0x28 TIF> >0x0D TIF> >0x28 TIF> >0x0D TIF> >0x21 TIF>
 >0x0D TIF> >0x21 TIF> >0x0D TIF> >0x28 TIF> >0x0D TIF> >0x21 TIF> >0x0D TIF> >0x21 TIF>Found Cortex-M4 r0p1, Little endian. -- CPU_ReadMem(4 bytes @ 0xE000EDF0) -- CPU_ReadMem(4 bytes @ 0xE0002000)FPUnit: 6 code (BP) slots and 2 literal slots -- CPU_ReadMem(4 bytes @ 0xE000EDFC) -- CPU_ReadMem(4 bytes @ 0xE0001000) -- CPU_WriteMem(4 bytes @ 0xE0001000) -- CPU_ReadMem(4 bytes @ 0xE000ED88) -- CPU_WriteMem(4 bytes @ 0xE000ED88) -- CPU_ReadMem(4 bytes @ 0xE000ED88) -- CPU_WriteMem(4 bytes @ 0xE000ED88)
CoreSight components:ROMTbl 0 @ E00FF000 -- CPU_ReadMem(16 bytes @ 0xE00FF000) -- CPU_ReadMem(16 bytes @ 0xE000EFF0) -- CPU_ReadMem(16 bytes @ 0xE000EFE0)ROMTbl 0 [0]: FFF0F000, CID: B105E00D, PID: 000BB00C SCS -- CPU_ReadMem(16 bytes @ 0xE0001FF0) -- CPU_ReadMem(16 bytes @ 0xE0001FE0)ROMTbl 0 [1]: FFF02000, CID: B105E00D, PID: 003BB002 DWT -- CPU_ReadMem(16 bytes @ 0xE0002FF0) -- CPU_ReadMem(16 bytes @ 0xE0002FE0)ROMTbl 0 [2]: FFF03000, CID: B105E00D, PID: 002BB003 FPB
 -- CPU_ReadMem(16 bytes @ 0xE0000FF0) -- CPU_ReadMem(16 bytes @ 0xE0000FE0)ROMTbl 0 [3]: FFF01000, CID: B105E00D, PID: 003BB001 ITM -- CPU_ReadMem(16 bytes @ 0xE00FF010) -- CPU_ReadMem(16 bytes @ 0xE0040FF0) -- CPU_ReadMem(16 bytes @ 0xE0040FE0)ROMTbl 0 [4]: FFF41000, CID: B105900D, PID: 000BB9A1 TPIU -- CPU_ReadMem(16 bytes @ 0xE0041FF0) -- CPU_ReadMem(16 bytes @ 0xE0041FE0)ROMTbl 0 [5]: FFF42000, CID: B105900D, PID: 000BB925 ETM >0x0D TIF> >0x21 TIF>  returns 0x2BA01477 (0040ms, 0184ms total)
T3EFC 000:234 JLINK_GetDLLVersion()  returns 60005 (0000ms, 0184ms total)
T3EFC 000:234 JLINK_CORE_GetFound()  returns 0xE0000FF (0000ms, 0184ms total)
T3EFC 000:234 JLINK_GetDebugInfo(0x100) -- Value=0xE00FF000  returns 0x00 (0000ms, 0184ms total)
T3EFC 000:234 JLINK_GetDebugInfo(0x100) -- Value=0xE00FF000  returns 0x00 (0000ms, 0184ms total)
T3EFC 000:234 JLINK_GetDebugInfo(0x101) -- Value=0xE0041000  returns 0x00 (0001ms, 0185ms total)
T3EFC 000:235 JLINK_GetDebugInfo(0x102) -- Value=0x00000000  returns 0x00 (0000ms, 0185ms total)
T3EFC 000:235 JLINK_GetDebugInfo(0x103) -- Value=0xE0040000  returns 0x00 (0000ms, 0185ms total)
T3EFC 000:235 JLINK_GetDebugInfo(0x104) -- Value=0xE0000000  returns 0x00 (0000ms, 0185ms total)
T3EFC 000:235 JLINK_GetDebugInfo(0x105) -- Value=0xE0001000  returns 0x00 (0000ms, 0185ms total)
T3EFC 000:235 JLINK_GetDebugInfo(0x106) -- Value=0xE0002000  returns 0x00 (0000ms, 0185ms total)
T3EFC 000:235 JLINK_GetDebugInfo(0x107) -- Value=0xE000E000  returns 0x00 (0000ms, 0185ms total)
T3EFC 000:235 JLINK_GetDebugInfo(0x10C) -- Value=0xE000EDF0  returns 0x00 (0000ms, 0185ms total)
T3EFC 000:235 JLINK_ReadMemU32(0xE000EF40, 0x0001 Items, ...) -- CPU is running -- CPU_ReadMem(4 bytes @ 0xE000EF40) - Data: 21 00 11 10  returns 0x01 (0000ms, 0185ms total)
T3EFC 000:235 JLINK_ReadMemU32(0xE000EF44, 0x0001 Items, ...) -- CPU is running -- CPU_ReadMem(4 bytes @ 0xE000EF44) - Data: 11 00 00 11  returns 0x01 (0001ms, 0186ms total)
T3EFC 000:236 JLINK_ReadMemU32(0xE000ED00, 0x0001 Items, ...) -- CPU is running -- CPU_ReadMem(4 bytes @ 0xE000ED00) - Data: 41 C2 0F 41  returns 0x01 (0000ms, 0186ms total)
T3EFC 000:236 JLINK_SetResetType(JLINKARM_RESET_TYPE_NORMAL)  returns JLINKARM_RESET_TYPE_NORMAL (0000ms, 0186ms total)
T3EFC 000:236 JLINK_Reset() -- CPU is running -- CPU_WriteMem(4 bytes @ 0xE000EDF0) -- CPU is running -- CPU_WriteMem(4 bytes @ 0xE000EDFC) >0x35 TIF> -- CPU is running -- CPU_WriteMem(4 bytes @ 0xE000ED0C) -- CPU is running -- CPU_ReadMem(4 bytes @ 0xE000EDF0) -- CPU is running -- CPU_ReadMem(4 bytes @ 0xE000EDF0) -- CPU is running -- CPU_WriteMem(4 bytes @ 0xE000EDF0) -- CPU is running -- CPU_WriteMem(4 bytes @ 0xE000EDFC) -- CPU is running -- CPU_ReadMem(4 bytes @ 0xE000EDF0)
 -- CPU_WriteMem(4 bytes @ 0xE0002000) -- CPU_ReadMem(4 bytes @ 0xE000EDFC) -- CPU_ReadMem(4 bytes @ 0xE0001000) (0019ms, 0205ms total)
T3EFC 000:255 JLINK_ReadReg(R15 (PC))  returns 0x08000254 (0000ms, 0205ms total)
T3EFC 000:255 JLINK_ReadReg(XPSR)  returns 0x01000000 (0000ms, 0205ms total)
T3EFC 000:255 JLINK_Halt()  returns 0x00 (0000ms, 0205ms total)
T3EFC 000:255 JLINK_IsHalted()  returns TRUE (0000ms, 0205ms total)
T3EFC 000:255 JLINK_ReadMemU32(0xE000EDF0, 0x0001 Items, ...) -- CPU_ReadMem(4 bytes @ 0xE000EDF0) - Data: 03 00 03 00  returns 0x01 (0001ms, 0206ms total)
T3EFC 000:256 JLINK_WriteU32(0xE000EDF0, 0xA05F0003) -- CPU_WriteMem(4 bytes @ 0xE000EDF0)  returns 0x00 (0001ms, 0207ms total)
T3EFC 000:257 JLINK_WriteU32(0xE000EDFC, 0x01000000) -- CPU_WriteMem(4 bytes @ 0xE000EDFC)  returns 0x00 (0001ms, 0208ms total)
T3EFC 000:258 JLINK_GetHWStatus(...)  returns 0x00 (0000ms, 0208ms total)
T3EFC 000:258 JLINK_GetNumBPUnits(Type = 0xFFFFFF00)  returns 0x06 (0000ms, 0208ms total)
T3EFC 000:258 JLINK_GetNumBPUnits(Type = 0xF0)  returns 0x2000 (0000ms, 0208ms total)
T3EFC 000:258 JLINK_GetNumWPUnits()  returns 0x04 (0000ms, 0208ms total)
T3EFC 000:258 JLINK_GetSpeed()  returns 0xFA0 (0000ms, 0208ms total)
T3EFC 000:258 JLINK_ReadMemU32(0xE000E004, 0x0001 Items, ...) -- CPU_ReadMem(4 bytes @ 0xE000E004) - Data: 02 00 00 00  returns 0x01 (0001ms, 0209ms total)
T3EFC 000:259 JLINK_ReadMemU32(0xE000E004, 0x0001 Items, ...) -- CPU_ReadMem(4 bytes @ 0xE000E004) - Data: 02 00 00 00  returns 0x01 (0001ms, 0210ms total)
T3EFC 000:260 JLINK_WriteMem(0xE0001000, 0x001C Bytes, ...) - Data: 01 00 00 00 00 00 00 00 00 00 00 00 00 00 00 00 ... -- CPU_WriteMem(28 bytes @ 0xE0001000)  returns 0x1C (0001ms, 0211ms total)
T3EFC 000:261 JLINK_ReadMem (0xE0001000, 0x001C Bytes, ...) -- CPU_ReadMem(28 bytes @ 0xE0001000) - Data: 01 00 00 40 00 00 00 00 00 00 00 00 00 00 00 00 ...  returns 0x00 (0001ms, 0212ms total)
T3EFC 000:262 JLINK_ReadReg(R15 (PC))  returns 0x08000254 (0000ms, 0212ms total)
T3EFC 000:262 JLINK_ReadReg(XPSR)  returns 0x01000000 (0000ms, 0212ms total)
T3EFC 000:359 JLINK_SetResetType(JLINKARM_RESET_TYPE_NORMAL)  returns JLINKARM_RESET_TYPE_NORMAL (0000ms, 0212ms total)
T3EFC 000:359 JLINK_Reset() -- CPU_WriteMem(4 bytes @ 0xE000EDF0) -- CPU_WriteMem(4 bytes @ 0xE000EDFC) >0x35 TIF> -- CPU_WriteMem(4 bytes @ 0xE000ED0C) -- CPU_ReadMem(4 bytes @ 0xE000EDF0) -- CPU_ReadMem(4 bytes @ 0xE000EDF0) -- CPU_WriteMem(4 bytes @ 0xE000EDF0) -- CPU_WriteMem(4 bytes @ 0xE000EDFC) -- CPU is running -- CPU_ReadMem(4 bytes @ 0xE000EDF0) -- CPU_WriteMem(4 bytes @ 0xE0002000) -- CPU_ReadMem(4 bytes @ 0xE000EDFC) -- CPU_ReadMem(4 bytes @ 0xE0001000) (0020ms, 0232ms total)
T3EFC 000:379 JLINK_ReadReg(R15 (PC))  returns 0x08000254 (0000ms, 0232ms total)
T3EFC 000:379 JLINK_ReadReg(XPSR)  returns 0x01000000 (0000ms, 0232ms total)
T3EFC 000:700 JLINK_ReadMem (0x08000254, 0x003C Bytes, ...) -- CPU_ReadMem(128 bytes @ 0x08000240) -- Updating C cache (128 bytes @ 0x08000240) -- Read from C cache (60 bytes @ 0x08000254) - Data: 06 48 80 47 06 48 00 47 FE E7 FE E7 FE E7 FE E7 ...  returns 0x00 (0002ms, 0234ms total)
T0EE4 004:466 JLINK_SetBPEx(Addr = 0x0800515C, Type = 0xFFFFFFF2)  returns 0x00000001 (0001ms, 0235ms total)
T0EE4 004:467 JLINK_SetBPEx(Addr = 0x08005092, Type = 0xFFFFFFF2)  returns 0x00000002 (0000ms, 0235ms total)
T0EE4 004:467 JLINK_SetBPEx(Addr = 0x080058AE, Type = 0xFFFFFFF2)  returns 0x00000003 (0000ms, 0235ms total)
T0EE4 004:467 JLINK_Go() -- CPU_WriteMem(4 bytes @ 0xE0002000) -- CPU_WriteMem(4 bytes @ 0xE0002000) -- CPU_WriteMem(4 bytes @ 0xE0002000) -- CPU_ReadMem(4 bytes @ 0xE0001000) -- CPU_WriteMem(4 bytes @ 0xE0002008) -- CPU_WriteMem(4 bytes @ 0xE000200C) -- CPU_WriteMem(4 bytes @ 0xE0002010) -- CPU_WriteMem(4 bytes @ 0xE0002014) -- CPU_WriteMem(4 bytes @ 0xE0002018) -- CPU_WriteMem(4 bytes @ 0xE000201C) -- CPU_WriteMem(4 bytes @ 0xE0001004) (0006ms, 0241ms total)
T0EE4 004:574 JLINK_IsHalted()  returns TRUE (0002ms, 0243ms total)
T0EE4 004:576 JLINK_Halt()  returns 0x00 (0000ms, 0241ms total)
T0EE4 004:576 JLINK_IsHalted()  returns TRUE (0000ms, 0241ms total)
T0EE4 004:576 JLINK_IsHalted()  returns TRUE (0000ms, 0241ms total)
T0EE4 004:576 JLINK_IsHalted()  returns TRUE (0000ms, 0241ms total)
T0EE4 004:576 JLINK_ReadReg(R15 (PC))  returns 0x0800515C (0000ms, 0241ms total)
T0EE4 004:576 JLINK_ReadReg(XPSR)  returns 0x61000000 (0000ms, 0241ms total)
T0EE4 004:576 JLINK_ClrBPEx(BPHandle = 0x00000001)  returns 0x00 (0000ms, 0241ms total)
T0EE4 004:576 JLINK_ClrBPEx(BPHandle = 0x00000002)  returns 0x00 (0000ms, 0241ms total)
T0EE4 004:576 JLINK_ClrBPEx(BPHandle = 0x00000003)  returns 0x00 (0000ms, 0241ms total)
T0EE4 004:576 JLINK_ReadMemU32(0xE000ED30, 0x0001 Items, ...) -- CPU_ReadMem(4 bytes @ 0xE000ED30) - Data: 03 00 00 00  returns 0x01 (0001ms, 0242ms total)
T0EE4 004:577 JLINK_ReadMemU32(0xE0001028, 0x0001 Items, ...) -- CPU_ReadMem(4 bytes @ 0xE0001028) - Data: 00 00 00 00  returns 0x01 (0001ms, 0243ms total)
T0EE4 004:578 JLINK_ReadMemU32(0xE0001038, 0x0001 Items, ...) -- CPU_ReadMem(4 bytes @ 0xE0001038) - Data: 00 02 00 00  returns 0x01 (0000ms, 0243ms total)
T0EE4 004:578 JLINK_ReadMemU32(0xE0001048, 0x0001 Items, ...) -- CPU_ReadMem(4 bytes @ 0xE0001048) - Data: 00 00 00 00  returns 0x01 (0001ms, 0244ms total)
T0EE4 004:579 JLINK_ReadMemU32(0xE0001058, 0x0001 Items, ...) -- CPU_ReadMem(4 bytes @ 0xE0001058) - Data: 00 00 00 00  returns 0x01 (0000ms, 0244ms total)
T0EE4 004:579 JLINK_ReadReg(R0)  returns 0x0800515D (0000ms, 0244ms total)
T0EE4 004:579 JLINK_ReadReg(R1)  returns 0x200049C8 (0000ms, 0244ms total)
T0EE4 004:579 JLINK_ReadReg(R2)  returns 0x00000000 (0000ms, 0244ms total)
T0EE4 004:579 JLINK_ReadReg(R3)  returns 0x08004AA9 (0000ms, 0244ms total)
T0EE4 004:579 JLINK_ReadReg(R4)  returns 0x080067AC (0000ms, 0244ms total)
T0EE4 004:579 JLINK_ReadReg(R5)  returns 0x080067AC (0000ms, 0244ms total)
T0EE4 004:579 JLINK_ReadReg(R6)  returns 0x00000000 (0000ms, 0244ms total)
T0EE4 004:579 JLINK_ReadReg(R7)  returns 0x00000000 (0000ms, 0244ms total)
T0EE4 004:579 JLINK_ReadReg(R8)  returns 0x00000000 (0000ms, 0244ms total)
T0EE4 004:579 JLINK_ReadReg(R9)  returns 0x00000000 (0000ms, 0244ms total)
T0EE4 004:579 JLINK_ReadReg(R10)  returns 0x00000000 (0000ms, 0244ms total)
T0EE4 004:579 JLINK_ReadReg(R11)  returns 0x00000000 (0000ms, 0244ms total)
T0EE4 004:579 JLINK_ReadReg(R12)  returns 0x00000000 (0000ms, 0244ms total)
T0EE4 004:579 JLINK_ReadReg(R13 (SP))  returns 0x200049C8 (0000ms, 0244ms total)
T0EE4 004:579 JLINK_ReadReg(R14)  returns 0x08000B75 (0000ms, 0244ms total)
T0EE4 004:579 JLINK_ReadReg(R15 (PC))  returns 0x0800515C (0000ms, 0244ms total)
T0EE4 004:579 JLINK_ReadReg(XPSR)  returns 0x61000000 (0000ms, 0244ms total)
T0EE4 004:579 JLINK_ReadReg(MSP)  returns 0x200049C8 (0000ms, 0244ms total)
T0EE4 004:579 JLINK_ReadReg(PSP)  returns 0x00000000 (0000ms, 0244ms total)
T0EE4 004:579 JLINK_ReadReg(CFBP)  returns 0x00000000 (0000ms, 0244ms total)
T0EE4 004:579 JLINK_ReadReg(FPSCR)  returns 0x00000000 (0005ms, 0249ms total)
T0EE4 004:584 JLINK_ReadReg(FPS0)  returns 0x00000000 (0000ms, 0249ms total)
T0EE4 004:584 JLINK_ReadReg(FPS1)  returns 0x00000000 (0000ms, 0249ms total)
T0EE4 004:584 JLINK_ReadReg(FPS2)  returns 0x00000000 (0000ms, 0249ms total)
T0EE4 004:584 JLINK_ReadReg(FPS3)  returns 0x00000000 (0000ms, 0249ms total)
T0EE4 004:584 JLINK_ReadReg(FPS4)  returns 0x00000000 (0000ms, 0249ms total)
T0EE4 004:584 JLINK_ReadReg(FPS5)  returns 0x00000000 (0000ms, 0249ms total)
T0EE4 004:584 JLINK_ReadReg(FPS6)  returns 0x00000000 (0000ms, 0249ms total)
T0EE4 004:584 JLINK_ReadReg(FPS7)  returns 0x00000000 (0000ms, 0249ms total)
T0EE4 004:584 JLINK_ReadReg(FPS8)  returns 0x00000000 (0000ms, 0249ms total)
T0EE4 004:584 JLINK_ReadReg(FPS9)  returns 0x00000000 (0000ms, 0249ms total)
T0EE4 004:584 JLINK_ReadReg(FPS10)  returns 0x00000000 (0000ms, 0249ms total)
T0EE4 004:584 JLINK_ReadReg(FPS11)  returns 0x00000000 (0000ms, 0249ms total)
T0EE4 004:584 JLINK_ReadReg(FPS12)  returns 0x00000000 (0000ms, 0249ms total)
T0EE4 004:584 JLINK_ReadReg(FPS13)  returns 0x00000000 (0000ms, 0249ms total)
T0EE4 004:584 JLINK_ReadReg(FPS14)  returns 0x00000000 (0000ms, 0249ms total)
T0EE4 004:584 JLINK_ReadReg(FPS15)  returns 0x00000000 (0000ms, 0249ms total)
T0EE4 004:584 JLINK_ReadReg(FPS16)  returns 0x00000000 (0000ms, 0249ms total)
T0EE4 004:584 JLINK_ReadReg(FPS17)  returns 0x00000000 (0000ms, 0249ms total)
T0EE4 004:584 JLINK_ReadReg(FPS18)  returns 0x00000000 (0000ms, 0249ms total)
T0EE4 004:584 JLINK_ReadReg(FPS19)  returns 0x00000000 (0000ms, 0249ms total)
T0EE4 004:584 JLINK_ReadReg(FPS20)  returns 0x00000000 (0001ms, 0250ms total)
T0EE4 004:585 JLINK_ReadReg(FPS21)  returns 0x00000000 (0000ms, 0250ms total)
T0EE4 004:585 JLINK_ReadReg(FPS22)  returns 0x00000000 (0000ms, 0250ms total)
T0EE4 004:585 JLINK_ReadReg(FPS23)  returns 0x00000000 (0000ms, 0250ms total)
T0EE4 004:585 JLINK_ReadReg(FPS24)  returns 0x00000000 (0000ms, 0250ms total)
T0EE4 004:585 JLINK_ReadReg(FPS25)  returns 0x00000000 (0000ms, 0250ms total)
T0EE4 004:585 JLINK_ReadReg(FPS26)  returns 0x00000000 (0000ms, 0250ms total)
T0EE4 004:585 JLINK_ReadReg(FPS27)  returns 0x00000000 (0000ms, 0250ms total)
T0EE4 004:585 JLINK_ReadReg(FPS28)  returns 0x00000000 (0000ms, 0250ms total)
T0EE4 004:585 JLINK_ReadReg(FPS29)  returns 0x00000000 (0000ms, 0250ms total)
T0EE4 004:585 JLINK_ReadReg(FPS30)  returns 0x00000000 (0000ms, 0250ms total)
T0EE4 004:585 JLINK_ReadReg(FPS31)  returns 0x00000000 (0000ms, 0250ms total)
T3EFC 004:594 JLINK_ReadMem (0x0800515C, 0x003C Bytes, ...) -- CPU_ReadMem(128 bytes @ 0x08005140) -- Updating C cache (128 bytes @ 0x08005140) -- Read from C cache (60 bytes @ 0x0800515C) - Data: FD F7 52 FE FB F7 38 FD FE F7 1C FD 00 F0 8A FC ...  returns 0x00 (0002ms, 0252ms total)
T0EE4 006:343 JLINK_Step() -- Read from C cache (2 bytes @ 0x0800515C) -- CPU_ReadMem(4 bytes @ 0xE000ED18) -- CPU_WriteMem(4 bytes @ 0xE000ED18) -- CPU_ReadMem(4 bytes @ 0xE000ED18) -- CPU_WriteMem(4 bytes @ 0xE000ED18) -- CPU_ReadMem(4 bytes @ 0xE0001004) -- Read from C cache (2 bytes @ 0x0800515E) -- Simulated  returns 0x00 (0003ms, 0255ms total)
T0EE4 006:346 JLINK_ReadReg(R15 (PC))  returns 0x08002E04 (0000ms, 0255ms total)
T0EE4 006:346 JLINK_ReadReg(XPSR)  returns 0x61000000 (0000ms, 0255ms total)
T0EE4 006:346 JLINK_SetBPEx(Addr = 0x0800515C, Type = 0xFFFFFFF2)  returns 0x00000004 (0000ms, 0255ms total)
T0EE4 006:346 JLINK_SetBPEx(Addr = 0x08005092, Type = 0xFFFFFFF2)  returns 0x00000005 (0000ms, 0255ms total)
T0EE4 006:346 JLINK_SetBPEx(Addr = 0x080058AE, Type = 0xFFFFFFF2)  returns 0x00000006 (0000ms, 0255ms total)
T0EE4 006:346 JLINK_Go() -- CPU_WriteMem(4 bytes @ 0xE0002000) -- CPU_WriteMem(4 bytes @ 0xE0002000) -- CPU_WriteMem(4 bytes @ 0xE0002000) -- CPU_ReadMem(4 bytes @ 0xE0001000) -- CPU_WriteMem(4 bytes @ 0xE0001004) (0005ms, 0260ms total)
T0EE4 006:452 JLINK_IsHalted()  returns TRUE (0003ms, 0263ms total)
T0EE4 006:455 JLINK_Halt()  returns 0x00 (0000ms, 0260ms total)
T0EE4 006:455 JLINK_IsHalted()  returns TRUE (0000ms, 0260ms total)
T0EE4 006:455 JLINK_IsHalted()  returns TRUE (0000ms, 0260ms total)
T0EE4 006:455 JLINK_IsHalted()  returns TRUE (0000ms, 0260ms total)
T0EE4 006:455 JLINK_ReadReg(R15 (PC))  returns 0x080058AE (0000ms, 0260ms total)
T0EE4 006:455 JLINK_ReadReg(XPSR)  returns 0x61000000 (0000ms, 0260ms total)
T0EE4 006:455 JLINK_ClrBPEx(BPHandle = 0x00000004)  returns 0x00 (0000ms, 0260ms total)
T0EE4 006:455 JLINK_ClrBPEx(BPHandle = 0x00000005)  returns 0x00 (0000ms, 0260ms total)
T0EE4 006:455 JLINK_ClrBPEx(BPHandle = 0x00000006)  returns 0x00 (0000ms, 0260ms total)
T0EE4 006:455 JLINK_ReadMemU32(0xE000ED30, 0x0001 Items, ...) -- CPU_ReadMem(4 bytes @ 0xE000ED30) - Data: 03 00 00 00  returns 0x01 (0001ms, 0261ms total)
T0EE4 006:456 JLINK_ReadMemU32(0xE0001028, 0x0001 Items, ...) -- CPU_ReadMem(4 bytes @ 0xE0001028) - Data: 00 00 00 00  returns 0x01 (0001ms, 0262ms total)
T0EE4 006:457 JLINK_ReadMemU32(0xE0001038, 0x0001 Items, ...) -- CPU_ReadMem(4 bytes @ 0xE0001038) - Data: 00 02 00 00  returns 0x01 (0001ms, 0263ms total)
T0EE4 006:458 JLINK_ReadMemU32(0xE0001048, 0x0001 Items, ...) -- CPU_ReadMem(4 bytes @ 0xE0001048) - Data: 00 00 00 00  returns 0x01 (0000ms, 0263ms total)
T0EE4 006:459 JLINK_ReadMemU32(0xE0001058, 0x0001 Items, ...) -- CPU_ReadMem(4 bytes @ 0xE0001058) - Data: 00 00 00 00  returns 0x01 (0000ms, 0263ms total)
T0EE4 006:459 JLINK_ReadReg(R0)  returns 0x00000000 (0000ms, 0263ms total)
T0EE4 006:459 JLINK_ReadReg(R1)  returns 0x20000394 (0000ms, 0263ms total)
T0EE4 006:459 JLINK_ReadReg(R2)  returns 0x00000004 (0000ms, 0263ms total)
T0EE4 006:459 JLINK_ReadReg(R3)  returns 0x0300001F (0000ms, 0263ms total)
T0EE4 006:459 JLINK_ReadReg(R4)  returns 0x200004FC (0000ms, 0263ms total)
T0EE4 006:459 JLINK_ReadReg(R5)  returns 0x20000394 (0001ms, 0264ms total)
T0EE4 006:460 JLINK_ReadReg(R6)  returns 0x00000000 (0000ms, 0264ms total)
T0EE4 006:460 JLINK_ReadReg(R7)  returns 0xA5A5A5A5 (0000ms, 0264ms total)
T0EE4 006:460 JLINK_ReadReg(R8)  returns 0xA5A5A5A5 (0000ms, 0264ms total)
T0EE4 006:460 JLINK_ReadReg(R9)  returns 0xA5A5A5A5 (0000ms, 0264ms total)
T0EE4 006:460 JLINK_ReadReg(R10)  returns 0xA5A5A5A5 (0000ms, 0264ms total)
T0EE4 006:460 JLINK_ReadReg(R11)  returns 0xA5A5A5A5 (0000ms, 0264ms total)
T0EE4 006:460 JLINK_ReadReg(R12)  returns 0x00000000 (0000ms, 0264ms total)
T0EE4 006:460 JLINK_ReadReg(R13 (SP))  returns 0x200013A8 (0000ms, 0264ms total)
T0EE4 006:460 JLINK_ReadReg(R14)  returns 0x080058AB (0000ms, 0264ms total)
T0EE4 006:460 JLINK_ReadReg(R15 (PC))  returns 0x080058AE (0000ms, 0264ms total)
T0EE4 006:460 JLINK_ReadReg(XPSR)  returns 0x61000000 (0000ms, 0264ms total)
T0EE4 006:460 JLINK_ReadReg(MSP)  returns 0x20004960 (0000ms, 0264ms total)
T0EE4 006:460 JLINK_ReadReg(PSP)  returns 0x200013A8 (0000ms, 0264ms total)
T0EE4 006:460 JLINK_ReadReg(CFBP)  returns 0x06000000 (0000ms, 0264ms total)
T0EE4 006:460 JLINK_ReadReg(FPSCR)  returns 0x80000010 (0005ms, 0269ms total)
T0EE4 006:465 JLINK_ReadReg(FPS0)  returns 0x00000000 (0000ms, 0269ms total)
T0EE4 006:465 JLINK_ReadReg(FPS1)  returns 0x41200000 (0000ms, 0269ms total)
T0EE4 006:465 JLINK_ReadReg(FPS2)  returns 0x42DE0000 (0000ms, 0269ms total)
T0EE4 006:465 JLINK_ReadReg(FPS3)  returns 0x358637BD (0000ms, 0269ms total)
T0EE4 006:465 JLINK_ReadReg(FPS4)  returns 0x00000000 (0000ms, 0269ms total)
T0EE4 006:465 JLINK_ReadReg(FPS5)  returns 0x00000000 (0000ms, 0269ms total)
T0EE4 006:465 JLINK_ReadReg(FPS6)  returns 0x00000000 (0000ms, 0269ms total)
T0EE4 006:465 JLINK_ReadReg(FPS7)  returns 0x00000000 (0000ms, 0269ms total)
T0EE4 006:465 JLINK_ReadReg(FPS8)  returns 0x00000000 (0001ms, 0270ms total)
T0EE4 006:466 JLINK_ReadReg(FPS9)  returns 0x00000000 (0000ms, 0270ms total)
T0EE4 006:466 JLINK_ReadReg(FPS10)  returns 0x00000000 (0000ms, 0270ms total)
T0EE4 006:466 JLINK_ReadReg(FPS11)  returns 0x00000000 (0000ms, 0270ms total)
T0EE4 006:466 JLINK_ReadReg(FPS12)  returns 0x00000000 (0000ms, 0270ms total)
T0EE4 006:466 JLINK_ReadReg(FPS13)  returns 0x00000000 (0000ms, 0270ms total)
T0EE4 006:466 JLINK_ReadReg(FPS14)  returns 0x00000000 (0000ms, 0270ms total)
T0EE4 006:466 JLINK_ReadReg(FPS15)  returns 0x00000000 (0000ms, 0270ms total)
T0EE4 006:466 JLINK_ReadReg(FPS16)  returns 0x00000000 (0000ms, 0270ms total)
T0EE4 006:466 JLINK_ReadReg(FPS17)  returns 0xC1200000 (0000ms, 0270ms total)
T0EE4 006:466 JLINK_ReadReg(FPS18)  returns 0x41200000 (0000ms, 0270ms total)
T0EE4 006:466 JLINK_ReadReg(FPS19)  returns 0x00000000 (0000ms, 0270ms total)
T0EE4 006:466 JLINK_ReadReg(FPS20)  returns 0x00000000 (0000ms, 0270ms total)
T0EE4 006:466 JLINK_ReadReg(FPS21)  returns 0x00000000 (0000ms, 0270ms total)
T0EE4 006:466 JLINK_ReadReg(FPS22)  returns 0x00000000 (0000ms, 0270ms total)
T0EE4 006:466 JLINK_ReadReg(FPS23)  returns 0x00000000 (0000ms, 0270ms total)
T0EE4 006:466 JLINK_ReadReg(FPS24)  returns 0x00000000 (0000ms, 0270ms total)
T0EE4 006:466 JLINK_ReadReg(FPS25)  returns 0x00000000 (0000ms, 0270ms total)
T0EE4 006:466 JLINK_ReadReg(FPS26)  returns 0x00000000 (0000ms, 0270ms total)
T0EE4 006:466 JLINK_ReadReg(FPS27)  returns 0x00000000 (0000ms, 0270ms total)
T0EE4 006:466 JLINK_ReadReg(FPS28)  returns 0x00000000 (0000ms, 0270ms total)
T0EE4 006:466 JLINK_ReadReg(FPS29)  returns 0x00000000 (0000ms, 0270ms total)
T0EE4 006:466 JLINK_ReadReg(FPS30)  returns 0x00000000 (0000ms, 0270ms total)
T0EE4 006:466 JLINK_ReadReg(FPS31)  returns 0x00000000 (0000ms, 0270ms total)
T3EFC 006:467 JLINK_ReadMem (0x200013FC, 0x0004 Bytes, ...) -- CPU_ReadMem(64 bytes @ 0x200013C0) -- Updating C cache (64 bytes @ 0x200013C0) -- Read from C cache (4 bytes @ 0x200013FC) - Data: 77 4B 00 08  returns 0x00 (0001ms, 0271ms total)
T3EFC 006:468 JLINK_ReadMem (0x200013F4, 0x0004 Bytes, ...) -- Read from C cache (4 bytes @ 0x200013F4) - Data: FC 04 00 20  returns 0x00 (0000ms, 0271ms total)
T3EFC 006:468 JLINK_ReadMem (0x200013F8, 0x0004 Bytes, ...) -- Read from C cache (4 bytes @ 0x200013F8) - Data: 00 00 00 00  returns 0x00 (0000ms, 0271ms total)
T3EFC 006:468 JLINK_ReadMem (0x20001444, 0x0004 Bytes, ...) -- CPU_ReadMem(64 bytes @ 0x20001440) -- Updating C cache (64 bytes @ 0x20001440) -- Read from C cache (4 bytes @ 0x20001444) - Data: 93 50 00 08  returns 0x00 (0002ms, 0273ms total)
T3EFC 006:470 JLINK_ReadMem (0x20001438, 0x0004 Bytes, ...) -- CPU_ReadMem(64 bytes @ 0x20001400) -- Updating C cache (64 bytes @ 0x20001400) -- Read from C cache (4 bytes @ 0x20001438) - Data: FC 04 00 20  returns 0x00 (0001ms, 0274ms total)
T3EFC 006:471 JLINK_ReadMem (0x2000143C, 0x0004 Bytes, ...) -- Read from C cache (4 bytes @ 0x2000143C) - Data: A5 A5 A5 A5  returns 0x00 (0000ms, 0274ms total)
T3EFC 006:471 JLINK_ReadMem (0x20001440, 0x0004 Bytes, ...) -- Read from C cache (4 bytes @ 0x20001440) - Data: A5 A5 A5 A5  returns 0x00 (0000ms, 0274ms total)
T3EFC 006:471 JLINK_ReadMem (0x2000144C, 0x0004 Bytes, ...) -- Read from C cache (4 bytes @ 0x2000144C) - Data: A5 50 00 08  returns 0x00 (0000ms, 0274ms total)
T3EFC 006:472 JLINK_ReadMem (0x20001448, 0x0004 Bytes, ...) -- Read from C cache (4 bytes @ 0x20001448) - Data: 5C 04 00 20  returns 0x00 (0000ms, 0274ms total)
T3EFC 006:472 JLINK_ReadMem (0x20001454, 0x0004 Bytes, ...) -- Read from C cache (4 bytes @ 0x20001454) - Data: 97 1C 00 08  returns 0x00 (0000ms, 0274ms total)
T3EFC 006:473 JLINK_ReadMem (0x20001450, 0x0004 Bytes, ...) -- Read from C cache (4 bytes @ 0x20001450) - Data: A5 A5 A5 A5  returns 0x00 (0000ms, 0274ms total)
T3EFC 006:473 JLINK_ReadMem (0x2000145C, 0x0004 Bytes, ...) -- Read from C cache (4 bytes @ 0x2000145C) - Data: F3 56 00 08  returns 0x00 (0000ms, 0274ms total)
T3EFC 006:473 JLINK_ReadMem (0x200014B4, 0x0004 Bytes, ...) -- CPU_ReadMem(64 bytes @ 0x20001480) -- Updating C cache (64 bytes @ 0x20001480) -- Read from C cache (4 bytes @ 0x200014B4) - Data: 04 00 00 00  returns 0x00 (0002ms, 0276ms total)
T3EFC 006:475 JLINK_ReadMem (0x200014AC, 0x0004 Bytes, ...) -- Read from C cache (4 bytes @ 0x200014AC) - Data: 74 69 6D 61  returns 0x00 (0000ms, 0276ms total)
T3EFC 006:475 JLINK_ReadMem (0x200014B0, 0x0004 Bytes, ...) -- Read from C cache (4 bytes @ 0x200014B0) - Data: 74 65 5F 00  returns 0x00 (0000ms, 0276ms total)
T3EFC 006:475 JLINK_ReadMem (0x200013C0, 0x0002 Bytes, ...) -- Read from C cache (2 bytes @ 0x200013C0) - Data: 01 01  returns 0x00 (0000ms, 0276ms total)
T3EFC 006:517 JLINK_ReadMem (0x200013CF, 0x0008 Bytes, ...) -- Read from C cache (8 bytes @ 0x200013CF) - Data: 0A 00 03 00 FB FF 00 00  returns 0x00 (0000ms, 0276ms total)
T3EFC 006:539 JLINK_ReadMem (0x200013E3, 0x0008 Bytes, ...) -- Read from C cache (8 bytes @ 0x200013E3) - Data: 8F FE D7 FF 3A 1F 00 00  returns 0x00 (0000ms, 0276ms total)
T3EFC 006:566 JLINK_ReadMem (0x080058AE, 0x0002 Bytes, ...) -- CPU_ReadMem(64 bytes @ 0x08005880) -- Updating C cache (64 bytes @ 0x08005880) -- Read from C cache (2 bytes @ 0x080058AE) - Data: 9D F8  returns 0x00 (0001ms, 0277ms total)
T3EFC 006:567 JLINK_ReadMem (0x080058B0, 0x003C Bytes, ...) -- CPU_ReadMem(64 bytes @ 0x080058C0) -- Updating C cache (64 bytes @ 0x080058C0) -- Read from C cache (60 bytes @ 0x080058B0) - Data: 18 00 E8 B3 9D F8 27 10 07 A8 00 7B 41 EA 00 20 ...  returns 0x00 (0002ms, 0279ms total)
T3EFC 011:229 JLINK_ReadMem (0x200013EC, 0x0002 Bytes, ...) -- Read from C cache (2 bytes @ 0x200013EC) - Data: 00 00  returns 0x00 (0000ms, 0279ms total)
T3EFC 011:229 JLINK_ReadMem (0x200013EE, 0x0002 Bytes, ...) -- Read from C cache (2 bytes @ 0x200013EE) - Data: 00 00  returns 0x00 (0000ms, 0279ms total)
T3EFC 011:229 JLINK_ReadMem (0x200013F0, 0x0002 Bytes, ...) -- Read from C cache (2 bytes @ 0x200013F0) - Data: A5 A5  returns 0x00 (0000ms, 0279ms total)
T0EE4 020:844 JLINK_Step() -- Read from C cache (2 bytes @ 0x080058AE) -- CPU_ReadMem(4 bytes @ 0xE0001004) -- Read from C cache (2 bytes @ 0x080058B0) -- Not simulated -- CPU_WriteMem(4 bytes @ 0xE0002008) -- CPU_WriteMem(4 bytes @ 0xE000200C) -- CPU_WriteMem(4 bytes @ 0xE0002010)  returns 0x00 (0006ms, 0285ms total)
T0EE4 020:850 JLINK_ReadReg(R15 (PC))  returns 0x080058B2 (0000ms, 0285ms total)
T0EE4 020:850 JLINK_ReadReg(XPSR)  returns 0x61000000 (0000ms, 0285ms total)
T0EE4 020:850 JLINK_Step() -- CPU_ReadMem(64 bytes @ 0x08005880) -- Updating C cache (64 bytes @ 0x08005880) -- Read from C cache (2 bytes @ 0x080058B2) -- CPU_ReadMem(4 bytes @ 0xE0001004) -- Simulated  returns 0x00 (0002ms, 0287ms total)
T0EE4 020:852 JLINK_ReadReg(R15 (PC))  returns 0x080058B4 (0000ms, 0287ms total)
T0EE4 020:852 JLINK_ReadReg(XPSR)  returns 0x61000000 (0000ms, 0287ms total)
T0EE4 020:852 JLINK_ReadReg(R0)  returns 0x00000001 (0000ms, 0287ms total)
T0EE4 020:852 JLINK_ReadReg(R1)  returns 0x20000394 (0000ms, 0287ms total)
T0EE4 020:852 JLINK_ReadReg(R2)  returns 0x00000004 (0000ms, 0287ms total)
T0EE4 020:852 JLINK_ReadReg(R3)  returns 0x0300001F (0000ms, 0287ms total)
T0EE4 020:852 JLINK_ReadReg(R4)  returns 0x200004FC (0000ms, 0287ms total)
T0EE4 020:852 JLINK_ReadReg(R5)  returns 0x20000394 (0000ms, 0287ms total)
T0EE4 020:852 JLINK_ReadReg(R6)  returns 0x00000000 (0000ms, 0287ms total)
T0EE4 020:852 JLINK_ReadReg(R7)  returns 0xA5A5A5A5 (0000ms, 0287ms total)
T0EE4 020:852 JLINK_ReadReg(R8)  returns 0xA5A5A5A5 (0000ms, 0287ms total)
T0EE4 020:852 JLINK_ReadReg(R9)  returns 0xA5A5A5A5 (0000ms, 0287ms total)
T0EE4 020:852 JLINK_ReadReg(R10)  returns 0xA5A5A5A5 (0000ms, 0287ms total)
T0EE4 020:852 JLINK_ReadReg(R11)  returns 0xA5A5A5A5 (0000ms, 0287ms total)
T0EE4 020:852 JLINK_ReadReg(R12)  returns 0x00000000 (0000ms, 0287ms total)
T0EE4 020:852 JLINK_ReadReg(R13 (SP))  returns 0x200013A8 (0000ms, 0287ms total)
T0EE4 020:852 JLINK_ReadReg(R14)  returns 0x080058AB (0000ms, 0287ms total)
T0EE4 020:852 JLINK_ReadReg(R15 (PC))  returns 0x080058B4 (0000ms, 0287ms total)
T0EE4 020:852 JLINK_ReadReg(XPSR)  returns 0x61000000 (0000ms, 0287ms total)
T0EE4 020:852 JLINK_ReadReg(MSP)  returns 0x20004960 (0000ms, 0287ms total)
T0EE4 020:852 JLINK_ReadReg(PSP)  returns 0x200013A8 (0000ms, 0287ms total)
T0EE4 020:852 JLINK_ReadReg(CFBP)  returns 0x06000000 (0000ms, 0287ms total)
T0EE4 020:852 JLINK_ReadReg(FPSCR)  returns 0x80000010 (0005ms, 0292ms total)
T0EE4 020:857 JLINK_ReadReg(FPS0)  returns 0x00000000 (0000ms, 0292ms total)
T0EE4 020:857 JLINK_ReadReg(FPS1)  returns 0x41200000 (0000ms, 0292ms total)
T0EE4 020:857 JLINK_ReadReg(FPS2)  returns 0x42DE0000 (0000ms, 0292ms total)
T0EE4 020:857 JLINK_ReadReg(FPS3)  returns 0x358637BD (0000ms, 0292ms total)
T0EE4 020:857 JLINK_ReadReg(FPS4)  returns 0x00000000 (0000ms, 0292ms total)
T0EE4 020:857 JLINK_ReadReg(FPS5)  returns 0x00000000 (0000ms, 0292ms total)
T0EE4 020:857 JLINK_ReadReg(FPS6)  returns 0x00000000 (0000ms, 0292ms total)
T0EE4 020:857 JLINK_ReadReg(FPS7)  returns 0x00000000 (0000ms, 0292ms total)
T0EE4 020:857 JLINK_ReadReg(FPS8)  returns 0x00000000 (0000ms, 0292ms total)
T0EE4 020:857 JLINK_ReadReg(FPS9)  returns 0x00000000 (0000ms, 0292ms total)
T0EE4 020:857 JLINK_ReadReg(FPS10)  returns 0x00000000 (0000ms, 0292ms total)
T0EE4 020:857 JLINK_ReadReg(FPS11)  returns 0x00000000 (0000ms, 0292ms total)
T0EE4 020:857 JLINK_ReadReg(FPS12)  returns 0x00000000 (0000ms, 0292ms total)
T0EE4 020:857 JLINK_ReadReg(FPS13)  returns 0x00000000 (0000ms, 0292ms total)
T0EE4 020:857 JLINK_ReadReg(FPS14)  returns 0x00000000 (0000ms, 0292ms total)
T0EE4 020:857 JLINK_ReadReg(FPS15)  returns 0x00000000 (0000ms, 0292ms total)
T0EE4 020:857 JLINK_ReadReg(FPS16)  returns 0x00000000 (0000ms, 0292ms total)
T0EE4 020:857 JLINK_ReadReg(FPS17)  returns 0xC1200000 (0000ms, 0292ms total)
T0EE4 020:857 JLINK_ReadReg(FPS18)  returns 0x41200000 (0000ms, 0292ms total)
T0EE4 020:857 JLINK_ReadReg(FPS19)  returns 0x00000000 (0000ms, 0292ms total)
T0EE4 020:857 JLINK_ReadReg(FPS20)  returns 0x00000000 (0000ms, 0292ms total)
T0EE4 020:857 JLINK_ReadReg(FPS21)  returns 0x00000000 (0000ms, 0292ms total)
T0EE4 020:857 JLINK_ReadReg(FPS22)  returns 0x00000000 (0000ms, 0292ms total)
T0EE4 020:857 JLINK_ReadReg(FPS23)  returns 0x00000000 (0000ms, 0292ms total)
T0EE4 020:857 JLINK_ReadReg(FPS24)  returns 0x00000000 (0000ms, 0292ms total)
T0EE4 020:857 JLINK_ReadReg(FPS25)  returns 0x00000000 (0000ms, 0292ms total)
T0EE4 020:857 JLINK_ReadReg(FPS26)  returns 0x00000000 (0000ms, 0292ms total)
T0EE4 020:857 JLINK_ReadReg(FPS27)  returns 0x00000000 (0000ms, 0292ms total)
T0EE4 020:857 JLINK_ReadReg(FPS28)  returns 0x00000000 (0000ms, 0292ms total)
T0EE4 020:857 JLINK_ReadReg(FPS29)  returns 0x00000000 (0000ms, 0292ms total)
T0EE4 020:857 JLINK_ReadReg(FPS30)  returns 0x00000000 (0001ms, 0293ms total)
T0EE4 020:858 JLINK_ReadReg(FPS31)  returns 0x00000000 (0000ms, 0293ms total)
T3EFC 020:858 JLINK_ReadMem (0x200013FC, 0x0004 Bytes, ...) -- CPU_ReadMem(64 bytes @ 0x200013C0) -- Updating C cache (64 bytes @ 0x200013C0) -- Read from C cache (4 bytes @ 0x200013FC) - Data: 77 4B 00 08  returns 0x00 (0001ms, 0294ms total)
T3EFC 020:859 JLINK_ReadMem (0x200013F4, 0x0004 Bytes, ...) -- Read from C cache (4 bytes @ 0x200013F4) - Data: FC 04 00 20  returns 0x00 (0000ms, 0294ms total)
T3EFC 020:859 JLINK_ReadMem (0x200013F8, 0x0004 Bytes, ...) -- Read from C cache (4 bytes @ 0x200013F8) - Data: 00 00 00 00  returns 0x00 (0000ms, 0294ms total)
T3EFC 020:859 JLINK_ReadMem (0x20001444, 0x0004 Bytes, ...) -- CPU_ReadMem(64 bytes @ 0x20001440) -- Updating C cache (64 bytes @ 0x20001440) -- Read from C cache (4 bytes @ 0x20001444) - Data: 93 50 00 08  returns 0x00 (0002ms, 0296ms total)
T3EFC 020:861 JLINK_ReadMem (0x20001438, 0x0004 Bytes, ...) -- CPU_ReadMem(64 bytes @ 0x20001400) -- Updating C cache (64 bytes @ 0x20001400) -- Read from C cache (4 bytes @ 0x20001438) - Data: FC 04 00 20  returns 0x00 (0001ms, 0297ms total)
T3EFC 020:862 JLINK_ReadMem (0x2000143C, 0x0004 Bytes, ...) -- Read from C cache (4 bytes @ 0x2000143C) - Data: A5 A5 A5 A5  returns 0x00 (0000ms, 0297ms total)
T3EFC 020:862 JLINK_ReadMem (0x20001440, 0x0004 Bytes, ...) -- Read from C cache (4 bytes @ 0x20001440) - Data: A5 A5 A5 A5  returns 0x00 (0000ms, 0297ms total)
T3EFC 020:862 JLINK_ReadMem (0x2000144C, 0x0004 Bytes, ...) -- Read from C cache (4 bytes @ 0x2000144C) - Data: A5 50 00 08  returns 0x00 (0000ms, 0297ms total)
T3EFC 020:862 JLINK_ReadMem (0x20001448, 0x0004 Bytes, ...) -- Read from C cache (4 bytes @ 0x20001448) - Data: 5C 04 00 20  returns 0x00 (0000ms, 0297ms total)
T3EFC 020:862 JLINK_ReadMem (0x20001454, 0x0004 Bytes, ...) -- Read from C cache (4 bytes @ 0x20001454) - Data: 97 1C 00 08  returns 0x00 (0000ms, 0297ms total)
T3EFC 020:862 JLINK_ReadMem (0x20001450, 0x0004 Bytes, ...) -- Read from C cache (4 bytes @ 0x20001450) - Data: A5 A5 A5 A5  returns 0x00 (0000ms, 0297ms total)
T3EFC 020:862 JLINK_ReadMem (0x2000145C, 0x0004 Bytes, ...) -- Read from C cache (4 bytes @ 0x2000145C) - Data: F3 56 00 08  returns 0x00 (0000ms, 0297ms total)
T3EFC 020:862 JLINK_ReadMem (0x200014B4, 0x0004 Bytes, ...) -- CPU_ReadMem(64 bytes @ 0x20001480) -- Updating C cache (64 bytes @ 0x20001480) -- Read from C cache (4 bytes @ 0x200014B4) - Data: 04 00 00 00  returns 0x00 (0001ms, 0298ms total)
T3EFC 020:863 JLINK_ReadMem (0x200014AC, 0x0004 Bytes, ...) -- Read from C cache (4 bytes @ 0x200014AC) - Data: 74 69 6D 61  returns 0x00 (0000ms, 0298ms total)
T3EFC 020:863 JLINK_ReadMem (0x200014B0, 0x0004 Bytes, ...) -- Read from C cache (4 bytes @ 0x200014B0) - Data: 74 65 5F 00  returns 0x00 (0000ms, 0298ms total)
T3EFC 020:863 JLINK_ReadMem (0x200013C0, 0x0002 Bytes, ...) -- Read from C cache (2 bytes @ 0x200013C0) - Data: 01 01  returns 0x00 (0000ms, 0298ms total)
T3EFC 020:863 JLINK_ReadMem (0x200013EC, 0x0002 Bytes, ...) -- Read from C cache (2 bytes @ 0x200013EC) - Data: 00 00  returns 0x00 (0000ms, 0298ms total)
T3EFC 020:863 JLINK_ReadMem (0x200013EE, 0x0002 Bytes, ...) -- Read from C cache (2 bytes @ 0x200013EE) - Data: 00 00  returns 0x00 (0000ms, 0298ms total)
T3EFC 020:863 JLINK_ReadMem (0x200013F0, 0x0002 Bytes, ...) -- Read from C cache (2 bytes @ 0x200013F0) - Data: A5 A5  returns 0x00 (0000ms, 0298ms total)
T3EFC 020:863 JLINK_ReadMem (0x200013CF, 0x0008 Bytes, ...) -- Read from C cache (8 bytes @ 0x200013CF) - Data: 0A 00 03 00 FB FF 00 00  returns 0x00 (0000ms, 0298ms total)
T3EFC 020:863 JLINK_ReadMem (0x200013E3, 0x0008 Bytes, ...) -- Read from C cache (8 bytes @ 0x200013E3) - Data: 8F FE D7 FF 3A 1F 00 00  returns 0x00 (0000ms, 0298ms total)
T0EE4 021:221 JLINK_ReadMem (0x080058B4, 0x003C Bytes, ...) -- CPU_ReadMem(64 bytes @ 0x080058C0) -- Updating C cache (64 bytes @ 0x080058C0) -- Read from C cache (60 bytes @ 0x080058B4) - Data: 9D F8 27 10 07 A8 00 7B 41 EA 00 20 00 B2 AD F8 ...  returns 0x00 (0001ms, 0299ms total)
T0EE4 021:222 JLINK_Step() -- Read from C cache (2 bytes @ 0x080058B4) -- Read from C cache (2 bytes @ 0x080058B6) -- Not simulated -- CPU_WriteMem(4 bytes @ 0xE0001004)  returns 0x00 (0005ms, 0304ms total)
T0EE4 021:227 JLINK_ReadReg(R15 (PC))  returns 0x080058B8 (0000ms, 0304ms total)
T0EE4 021:227 JLINK_ReadReg(XPSR)  returns 0x61000000 (0000ms, 0304ms total)
T0EE4 021:227 JLINK_Step() -- CPU_ReadMem(64 bytes @ 0x08005880) -- Updating C cache (64 bytes @ 0x08005880) -- Read from C cache (2 bytes @ 0x080058B8) -- CPU_ReadMem(4 bytes @ 0xE0001004) -- Simulated  returns 0x00 (0001ms, 0305ms total)
T0EE4 021:228 JLINK_ReadReg(R15 (PC))  returns 0x080058BA (0000ms, 0305ms total)
T0EE4 021:228 JLINK_ReadReg(XPSR)  returns 0x61000000 (0000ms, 0305ms total)
T0EE4 021:228 JLINK_Step() -- Read from C cache (2 bytes @ 0x080058BA) -- CPU_ReadMem(64 bytes @ 0x200013C0) -- Updating C cache (64 bytes @ 0x200013C0) -- Read from C cache (1 bytes @ 0x200013D0) -- Simulated  returns 0x00 (0002ms, 0307ms total)
T0EE4 021:230 JLINK_ReadReg(R15 (PC))  returns 0x080058BC (0000ms, 0307ms total)
T0EE4 021:230 JLINK_ReadReg(XPSR)  returns 0x61000000 (0000ms, 0307ms total)
T0EE4 021:230 JLINK_Step() -- Read from C cache (2 bytes @ 0x080058BC) -- Read from C cache (2 bytes @ 0x080058BE) -- Not simulated -- CPU_WriteMem(4 bytes @ 0xE0001004)  returns 0x00 (0006ms, 0313ms total)
T0EE4 021:236 JLINK_ReadReg(R15 (PC))  returns 0x080058C0 (0000ms, 0313ms total)
T0EE4 021:236 JLINK_ReadReg(XPSR)  returns 0x61000000 (0000ms, 0313ms total)
T0EE4 021:236 JLINK_Step() -- CPU_ReadMem(64 bytes @ 0x080058C0) -- Updating C cache (64 bytes @ 0x080058C0) -- Read from C cache (2 bytes @ 0x080058C0) -- CPU_ReadMem(4 bytes @ 0xE0001004) -- Simulated  returns 0x00 (0002ms, 0315ms total)
T0EE4 021:238 JLINK_ReadReg(R15 (PC))  returns 0x080058C2 (0000ms, 0315ms total)
T0EE4 021:238 JLINK_ReadReg(XPSR)  returns 0x61000000 (0000ms, 0315ms total)
T0EE4 021:238 JLINK_Step() -- Read from C cache (2 bytes @ 0x080058C2) -- Read from C cache (2 bytes @ 0x080058C4) -- Not simulated -- CPU_WriteMem(4 bytes @ 0xE0001004)  returns 0x00 (0006ms, 0321ms total)
T0EE4 021:244 JLINK_ReadReg(R15 (PC))  returns 0x080058C6 (0000ms, 0321ms total)
T0EE4 021:244 JLINK_ReadReg(XPSR)  returns 0x61000000 (0000ms, 0321ms total)
T0EE4 021:244 JLINK_ReadReg(R0)  returns 0x0000000A (0000ms, 0321ms total)
T0EE4 021:244 JLINK_ReadReg(R1)  returns 0x0000000A (0000ms, 0321ms total)
T0EE4 021:244 JLINK_ReadReg(R2)  returns 0x00000004 (0000ms, 0321ms total)
T0EE4 021:244 JLINK_ReadReg(R3)  returns 0x0300001F (0000ms, 0321ms total)
T0EE4 021:244 JLINK_ReadReg(R4)  returns 0x200004FC (0000ms, 0321ms total)
T0EE4 021:244 JLINK_ReadReg(R5)  returns 0x20000394 (0000ms, 0321ms total)
T0EE4 021:244 JLINK_ReadReg(R6)  returns 0x00000000 (0000ms, 0321ms total)
T0EE4 021:244 JLINK_ReadReg(R7)  returns 0xA5A5A5A5 (0001ms, 0322ms total)
T0EE4 021:245 JLINK_ReadReg(R8)  returns 0xA5A5A5A5 (0000ms, 0322ms total)
T0EE4 021:245 JLINK_ReadReg(R9)  returns 0xA5A5A5A5 (0000ms, 0322ms total)
T0EE4 021:245 JLINK_ReadReg(R10)  returns 0xA5A5A5A5 (0000ms, 0322ms total)
T0EE4 021:245 JLINK_ReadReg(R11)  returns 0xA5A5A5A5 (0000ms, 0322ms total)
T0EE4 021:245 JLINK_ReadReg(R12)  returns 0x00000000 (0000ms, 0322ms total)
T0EE4 021:245 JLINK_ReadReg(R13 (SP))  returns 0x200013A8 (0000ms, 0322ms total)
T0EE4 021:245 JLINK_ReadReg(R14)  returns 0x080058AB (0000ms, 0322ms total)
T0EE4 021:245 JLINK_ReadReg(R15 (PC))  returns 0x080058C6 (0000ms, 0322ms total)
T0EE4 021:245 JLINK_ReadReg(XPSR)  returns 0x61000000 (0000ms, 0322ms total)
T0EE4 021:245 JLINK_ReadReg(MSP)  returns 0x20004960 (0000ms, 0322ms total)
T0EE4 021:245 JLINK_ReadReg(PSP)  returns 0x200013A8 (0000ms, 0322ms total)
T0EE4 021:245 JLINK_ReadReg(CFBP)  returns 0x06000000 (0000ms, 0322ms total)
T0EE4 021:245 JLINK_ReadReg(FPSCR)  returns 0x80000010 (0005ms, 0327ms total)
T0EE4 021:250 JLINK_ReadReg(FPS0)  returns 0x00000000 (0000ms, 0327ms total)
T0EE4 021:250 JLINK_ReadReg(FPS1)  returns 0x41200000 (0000ms, 0327ms total)
T0EE4 021:250 JLINK_ReadReg(FPS2)  returns 0x42DE0000 (0000ms, 0327ms total)
T0EE4 021:250 JLINK_ReadReg(FPS3)  returns 0x358637BD (0000ms, 0327ms total)
T0EE4 021:250 JLINK_ReadReg(FPS4)  returns 0x00000000 (0000ms, 0327ms total)
T0EE4 021:250 JLINK_ReadReg(FPS5)  returns 0x00000000 (0000ms, 0327ms total)
T0EE4 021:250 JLINK_ReadReg(FPS6)  returns 0x00000000 (0000ms, 0327ms total)
T0EE4 021:250 JLINK_ReadReg(FPS7)  returns 0x00000000 (0000ms, 0327ms total)
T0EE4 021:250 JLINK_ReadReg(FPS8)  returns 0x00000000 (0000ms, 0327ms total)
T0EE4 021:250 JLINK_ReadReg(FPS9)  returns 0x00000000 (0000ms, 0327ms total)
T0EE4 021:250 JLINK_ReadReg(FPS10)  returns 0x00000000 (0000ms, 0327ms total)
T0EE4 021:250 JLINK_ReadReg(FPS11)  returns 0x00000000 (0000ms, 0327ms total)
T0EE4 021:250 JLINK_ReadReg(FPS12)  returns 0x00000000 (0000ms, 0327ms total)
T0EE4 021:250 JLINK_ReadReg(FPS13)  returns 0x00000000 (0000ms, 0327ms total)
T0EE4 021:250 JLINK_ReadReg(FPS14)  returns 0x00000000 (0000ms, 0327ms total)
T0EE4 021:250 JLINK_ReadReg(FPS15)  returns 0x00000000 (0000ms, 0327ms total)
T0EE4 021:250 JLINK_ReadReg(FPS16)  returns 0x00000000 (0000ms, 0327ms total)
T0EE4 021:250 JLINK_ReadReg(FPS17)  returns 0xC1200000 (0000ms, 0327ms total)
T0EE4 021:250 JLINK_ReadReg(FPS18)  returns 0x41200000 (0000ms, 0327ms total)
T0EE4 021:250 JLINK_ReadReg(FPS19)  returns 0x00000000 (0000ms, 0327ms total)
T0EE4 021:250 JLINK_ReadReg(FPS20)  returns 0x00000000 (0000ms, 0327ms total)
T0EE4 021:250 JLINK_ReadReg(FPS21)  returns 0x00000000 (0000ms, 0327ms total)
T0EE4 021:250 JLINK_ReadReg(FPS22)  returns 0x00000000 (0000ms, 0327ms total)
T0EE4 021:250 JLINK_ReadReg(FPS23)  returns 0x00000000 (0000ms, 0327ms total)
T0EE4 021:250 JLINK_ReadReg(FPS24)  returns 0x00000000 (0000ms, 0327ms total)
T0EE4 021:250 JLINK_ReadReg(FPS25)  returns 0x00000000 (0000ms, 0327ms total)
T0EE4 021:250 JLINK_ReadReg(FPS26)  returns 0x00000000 (0000ms, 0327ms total)
T0EE4 021:250 JLINK_ReadReg(FPS27)  returns 0x00000000 (0000ms, 0327ms total)
T0EE4 021:250 JLINK_ReadReg(FPS28)  returns 0x00000000 (0000ms, 0327ms total)
T0EE4 021:250 JLINK_ReadReg(FPS29)  returns 0x00000000 (0000ms, 0327ms total)
T0EE4 021:250 JLINK_ReadReg(FPS30)  returns 0x00000000 (0000ms, 0327ms total)
T0EE4 021:250 JLINK_ReadReg(FPS31)  returns 0x00000000 (0000ms, 0327ms total)
T3EFC 021:250 JLINK_ReadMem (0x200013FC, 0x0004 Bytes, ...) -- CPU_ReadMem(64 bytes @ 0x200013C0) -- Updating C cache (64 bytes @ 0x200013C0) -- Read from C cache (4 bytes @ 0x200013FC) - Data: 77 4B 00 08  returns 0x00 (0002ms, 0329ms total)
T3EFC 021:252 JLINK_ReadMem (0x200013F4, 0x0004 Bytes, ...) -- Read from C cache (4 bytes @ 0x200013F4) - Data: FC 04 00 20  returns 0x00 (0000ms, 0329ms total)
T3EFC 021:252 JLINK_ReadMem (0x200013F8, 0x0004 Bytes, ...) -- Read from C cache (4 bytes @ 0x200013F8) - Data: 00 00 00 00  returns 0x00 (0000ms, 0329ms total)
T3EFC 021:252 JLINK_ReadMem (0x20001444, 0x0004 Bytes, ...) -- CPU_ReadMem(64 bytes @ 0x20001440) -- Updating C cache (64 bytes @ 0x20001440) -- Read from C cache (4 bytes @ 0x20001444) - Data: 93 50 00 08  returns 0x00 (0001ms, 0330ms total)
T3EFC 021:253 JLINK_ReadMem (0x20001438, 0x0004 Bytes, ...) -- CPU_ReadMem(64 bytes @ 0x20001400) -- Updating C cache (64 bytes @ 0x20001400) -- Read from C cache (4 bytes @ 0x20001438) - Data: FC 04 00 20  returns 0x00 (0002ms, 0332ms total)
T3EFC 021:255 JLINK_ReadMem (0x2000143C, 0x0004 Bytes, ...) -- Read from C cache (4 bytes @ 0x2000143C) - Data: A5 A5 A5 A5  returns 0x00 (0000ms, 0332ms total)
T3EFC 021:255 JLINK_ReadMem (0x20001440, 0x0004 Bytes, ...) -- Read from C cache (4 bytes @ 0x20001440) - Data: A5 A5 A5 A5  returns 0x00 (0000ms, 0332ms total)
T3EFC 021:255 JLINK_ReadMem (0x2000144C, 0x0004 Bytes, ...) -- Read from C cache (4 bytes @ 0x2000144C) - Data: A5 50 00 08  returns 0x00 (0000ms, 0332ms total)
T3EFC 021:255 JLINK_ReadMem (0x20001448, 0x0004 Bytes, ...) -- Read from C cache (4 bytes @ 0x20001448) - Data: 5C 04 00 20  returns 0x00 (0000ms, 0332ms total)
T3EFC 021:255 JLINK_ReadMem (0x20001454, 0x0004 Bytes, ...) -- Read from C cache (4 bytes @ 0x20001454) - Data: 97 1C 00 08  returns 0x00 (0000ms, 0332ms total)
T3EFC 021:255 JLINK_ReadMem (0x20001450, 0x0004 Bytes, ...) -- Read from C cache (4 bytes @ 0x20001450) - Data: A5 A5 A5 A5  returns 0x00 (0000ms, 0332ms total)
T3EFC 021:255 JLINK_ReadMem (0x2000145C, 0x0004 Bytes, ...) -- Read from C cache (4 bytes @ 0x2000145C) - Data: F3 56 00 08  returns 0x00 (0000ms, 0332ms total)
T3EFC 021:255 JLINK_ReadMem (0x200014B4, 0x0004 Bytes, ...) -- CPU_ReadMem(64 bytes @ 0x20001480) -- Updating C cache (64 bytes @ 0x20001480) -- Read from C cache (4 bytes @ 0x200014B4) - Data: 04 00 00 00  returns 0x00 (0001ms, 0333ms total)
T3EFC 021:256 JLINK_ReadMem (0x200014AC, 0x0004 Bytes, ...) -- Read from C cache (4 bytes @ 0x200014AC) - Data: 74 69 6D 61  returns 0x00 (0000ms, 0333ms total)
T3EFC 021:256 JLINK_ReadMem (0x200014B0, 0x0004 Bytes, ...) -- Read from C cache (4 bytes @ 0x200014B0) - Data: 74 65 5F 00  returns 0x00 (0000ms, 0333ms total)
T3EFC 021:256 JLINK_ReadMem (0x200013C0, 0x0002 Bytes, ...) -- Read from C cache (2 bytes @ 0x200013C0) - Data: 01 01  returns 0x00 (0000ms, 0333ms total)
T3EFC 021:256 JLINK_ReadMem (0x200013EC, 0x0002 Bytes, ...) -- Read from C cache (2 bytes @ 0x200013EC) - Data: 0A 00  returns 0x00 (0000ms, 0333ms total)
T3EFC 021:258 JLINK_ReadMem (0x200013EE, 0x0002 Bytes, ...) -- Read from C cache (2 bytes @ 0x200013EE) - Data: 00 00  returns 0x00 (0000ms, 0333ms total)
T3EFC 021:258 JLINK_ReadMem (0x200013F0, 0x0002 Bytes, ...) -- Read from C cache (2 bytes @ 0x200013F0) - Data: A5 A5  returns 0x00 (0000ms, 0333ms total)
T3EFC 021:258 JLINK_ReadMem (0x200013CF, 0x0008 Bytes, ...) -- Read from C cache (8 bytes @ 0x200013CF) - Data: 0A 00 03 00 FB FF 00 00  returns 0x00 (0000ms, 0333ms total)
T3EFC 021:258 JLINK_ReadMem (0x200013E3, 0x0008 Bytes, ...) -- Read from C cache (8 bytes @ 0x200013E3) - Data: 8F FE D7 FF 3A 1F 00 00  returns 0x00 (0000ms, 0333ms total)
T3EFC 021:258 JLINK_ReadMem (0x080058C6, 0x0002 Bytes, ...) -- CPU_ReadMem(64 bytes @ 0x080058C0) -- Updating C cache (64 bytes @ 0x080058C0) -- Read from C cache (2 bytes @ 0x080058C6) - Data: 07 A8  returns 0x00 (0001ms, 0334ms total)
T3EFC 021:259 JLINK_ReadMem (0x080058C8, 0x003C Bytes, ...) -- CPU_ReadMem(64 bytes @ 0x08005900) -- Updating C cache (64 bytes @ 0x08005900) -- Read from C cache (60 bytes @ 0x080058C8) - Data: 41 7B 80 7B 41 EA 00 20 00 B2 AD F8 46 00 07 A8 ...  returns 0x00 (0002ms, 0336ms total)
T0EE4 021:530 JLINK_Step() -- Read from C cache (2 bytes @ 0x080058C6) -- CPU_ReadMem(4 bytes @ 0xE0001004) -- Simulated  returns 0x00 (0001ms, 0337ms total)
T0EE4 021:531 JLINK_ReadReg(R15 (PC))  returns 0x080058C8 (0000ms, 0337ms total)
T0EE4 021:531 JLINK_ReadReg(XPSR)  returns 0x61000000 (0000ms, 0337ms total)
T0EE4 021:531 JLINK_Step() -- Read from C cache (2 bytes @ 0x080058C8) -- Read from C cache (1 bytes @ 0x200013D1) -- Simulated  returns 0x00 (0000ms, 0337ms total)
T0EE4 021:531 JLINK_ReadReg(R15 (PC))  returns 0x080058CA (0000ms, 0337ms total)
T0EE4 021:531 JLINK_ReadReg(XPSR)  returns 0x61000000 (0000ms, 0337ms total)
T0EE4 021:531 JLINK_Step() -- Read from C cache (2 bytes @ 0x080058CA) -- Read from C cache (1 bytes @ 0x200013D2) -- Simulated  returns 0x00 (0000ms, 0337ms total)
T0EE4 021:531 JLINK_ReadReg(R15 (PC))  returns 0x080058CC (0000ms, 0337ms total)
T0EE4 021:531 JLINK_ReadReg(XPSR)  returns 0x61000000 (0000ms, 0337ms total)
T0EE4 021:531 JLINK_Step() -- Read from C cache (2 bytes @ 0x080058CC) -- Read from C cache (2 bytes @ 0x080058CE) -- Not simulated -- CPU_WriteMem(4 bytes @ 0xE0001004)  returns 0x00 (0006ms, 0343ms total)
T0EE4 021:537 JLINK_ReadReg(R15 (PC))  returns 0x080058D0 (0000ms, 0343ms total)
T0EE4 021:537 JLINK_ReadReg(XPSR)  returns 0x61000000 (0000ms, 0343ms total)
T0EE4 021:537 JLINK_Step() -- CPU_ReadMem(64 bytes @ 0x080058C0) -- Updating C cache (64 bytes @ 0x080058C0) -- Read from C cache (2 bytes @ 0x080058D0) -- CPU_ReadMem(4 bytes @ 0xE0001004) -- Simulated  returns 0x00 (0002ms, 0345ms total)
T0EE4 021:539 JLINK_ReadReg(R15 (PC))  returns 0x080058D2 (0000ms, 0345ms total)
T0EE4 021:539 JLINK_ReadReg(XPSR)  returns 0x61000000 (0000ms, 0345ms total)
T0EE4 021:539 JLINK_Step() -- Read from C cache (2 bytes @ 0x080058D2) -- Read from C cache (2 bytes @ 0x080058D4) -- Not simulated -- CPU_WriteMem(4 bytes @ 0xE0001004)  returns 0x00 (0005ms, 0350ms total)
T0EE4 021:544 JLINK_ReadReg(R15 (PC))  returns 0x080058D6 (0000ms, 0350ms total)
T0EE4 021:544 JLINK_ReadReg(XPSR)  returns 0x61000000 (0000ms, 0350ms total)
T0EE4 021:544 JLINK_ReadReg(R0)  returns 0x00000003 (0000ms, 0350ms total)
T0EE4 021:544 JLINK_ReadReg(R1)  returns 0x00000003 (0000ms, 0350ms total)
T0EE4 021:544 JLINK_ReadReg(R2)  returns 0x00000004 (0000ms, 0350ms total)
T0EE4 021:544 JLINK_ReadReg(R3)  returns 0x0300001F (0000ms, 0350ms total)
T0EE4 021:544 JLINK_ReadReg(R4)  returns 0x200004FC (0000ms, 0350ms total)
T0EE4 021:544 JLINK_ReadReg(R5)  returns 0x20000394 (0000ms, 0350ms total)
T0EE4 021:544 JLINK_ReadReg(R6)  returns 0x00000000 (0000ms, 0350ms total)
T0EE4 021:544 JLINK_ReadReg(R7)  returns 0xA5A5A5A5 (0000ms, 0350ms total)
T0EE4 021:544 JLINK_ReadReg(R8)  returns 0xA5A5A5A5 (0000ms, 0350ms total)
T0EE4 021:544 JLINK_ReadReg(R9)  returns 0xA5A5A5A5 (0000ms, 0350ms total)
T0EE4 021:544 JLINK_ReadReg(R10)  returns 0xA5A5A5A5 (0000ms, 0350ms total)
T0EE4 021:544 JLINK_ReadReg(R11)  returns 0xA5A5A5A5 (0000ms, 0350ms total)
T0EE4 021:544 JLINK_ReadReg(R12)  returns 0x00000000 (0000ms, 0350ms total)
T0EE4 021:544 JLINK_ReadReg(R13 (SP))  returns 0x200013A8 (0000ms, 0350ms total)
T0EE4 021:544 JLINK_ReadReg(R14)  returns 0x080058AB (0000ms, 0350ms total)
